
**** 10/16/24 13:30:46 ******* PSpice 17.4.0 (Nov 2018) ******* ID# 0 ********

 ** Profile: "SCHEMATIC1-DITHER_RAS"  [ D:\OneDrive\OneDrive - Hyper Instrument\003_Simulation_Circuits\PSpice\RAS Circuit\dither_ras


 ****     CIRCUIT DESCRIPTION


******************************************************************************




** Creating circuit file "DITHER_RAS.cir" 
** WARNING: THIS AUTOMATICALLY GENERATED FILE MAY BE OVERWRITTEN BY SUBSEQUENT SIMULATIONS

*Libraries: 
* Profile Libraries :
* Local Libraries :
* From [PSPICE NETLIST] section of C:\Users\kimdo\AppData\Roaming\SPB_Data\cdssetup\OrCAD_PSpice\17.4.0\PSpice.ini file:
.lib "nom.lib" 

*Analysis directives: 
.TRAN  0 500ms 400ms 1 
.OPTIONS ADVCONV
.OPTIONS PIVTOL= 1.0E-12
.OPTIONS SOLVER= 0
.PROBE64 V(alias(*)) I(alias(*)) 
.INC "..\SCHEMATIC1.net" 



**** INCLUDING SCHEMATIC1.net ****
* source DITHER_RAS
V_V1         N38290 0  
+SIN 1v 10v 500Hz 0 0 0
R_R4         N38290 N61779  649k  
R_R5         0 N38290  649k  
C_C3         N20508 N61779  12n  
C_C10         N58453 N57891  1uF  
R_R10         N57895 N57931  332  
R_R12         N58453 N57931  20k  
R_R13         N58453 N57943  20k  
C_C12         N57943 N57931  1n  
C_C13         0 N57931  100n  
C_C14         +V 0  100n  
C_C15         N57891 N58221  1n  
X_U3B         N20508 N58221 +V 0 N57891 LM358
D_D2         N57943 N57931 D1N4148 
D_D3         N57931 N57943 D1N4148 
V_V2         +V 0 5v
X_U4A         N57931 N57943 +V 0 N58063 LM358
R_R14         N57931 N58063  1000k  
R_R16         N20508 N57895  255k  
R_R17         N58221 N57891  255k  
C_C4         0 N20508  1n  
C_C6         0 N38290  39n  

**** RESUMING DITHER_RAS.cir ****
.END

**** 10/16/24 13:30:46 ******* PSpice 17.4.0 (Nov 2018) ******* ID# 0 ********

 ** Profile: "SCHEMATIC1-DITHER_RAS"  [ D:\OneDrive\OneDrive - Hyper Instrument\003_Simulation_Circuits\PSpice\RAS Circuit\dither_ras


 ****     Diode MODEL PARAMETERS


******************************************************************************




               D1N4148         X_U3B.x_lm358.dx 
          IS    2.682000E-09  800.000000E-18 
           N    1.836                        
         ISR    1.565000E-09                 
         IKF     .04417                      
          BV  100                            
         IBV  100.000000E-06                 
          RS     .5664          1            
          TT   11.540000E-09                 
         CJO    4.000000E-12                 
          VJ     .5                          
           M     .3333                       


               X_U3B.x_lm358.dy 
          IS  800.000000E-18 
          RS    1.000000E-03 
         CJO   10.000000E-12 


               X_U4A.x_lm358.dx 
          IS  800.000000E-18 
          RS    1            


               X_U4A.x_lm358.dy 
          IS  800.000000E-18 
          RS    1.000000E-03 
         CJO   10.000000E-12 


**** 10/16/24 13:30:46 ******* PSpice 17.4.0 (Nov 2018) ******* ID# 0 ********

 ** Profile: "SCHEMATIC1-DITHER_RAS"  [ D:\OneDrive\OneDrive - Hyper Instrument\003_Simulation_Circuits\PSpice\RAS Circuit\dither_ras


 ****     BJT MODEL PARAMETERS


******************************************************************************




               X_U3B.x_lm358.qx 
               PNP             
       LEVEL    1            
          IS  800.000000E-18 
          BF  166.7          
          NF    1            
          BR    1            
          NR    1            
         ISS    0            
          RE    0            
          RC    0            
         CJE    0            
         VJE     .75         
         CJC    0            
         VJC     .75         
         MJC     .33         
        XCJC    1            
         CJS    0            
         VJS     .75         
          KF    0            
          AF    1            
          CN    2.2          
           D     .52         


               X_U4A.x_lm358.qx 
               PNP             
       LEVEL    1            
          IS  800.000000E-18 
          BF  166.7          
          NF    1            
          BR    1            
          NR    1            
         ISS    0            
          RE    0            
          RC    0            
         CJE    0            
         VJE     .75         
         CJC    0            
         VJC     .75         
         MJC     .33         
        XCJC    1            
         CJS    0            
         VJS     .75         
          KF    0            
          AF    1            
          CN    2.2          
           D     .52         


**** 10/16/24 13:30:46 ******* PSpice 17.4.0 (Nov 2018) ******* ID# 0 ********

 ** Profile: "SCHEMATIC1-DITHER_RAS"  [ D:\OneDrive\OneDrive - Hyper Instrument\003_Simulation_Circuits\PSpice\RAS Circuit\dither_ras


 ****     Current Controlled Switch MODEL PARAMETERS


******************************************************************************




               X_U3B.x_lm358.sw2 
         RON    1            
        ROFF   10.000000E+06 
         ION    0            
        IOFF   -1.000000E-06 


               X_U3B.x_lm358.sw1 
         RON    1            
        ROFF   10.000000E+06 
         ION   -1.000000E-06 
        IOFF    0            


               X_U3B.x_lm358.sw3 
         RON    1            
        ROFF   10.000000E+06 
         ION   -1.000000E-06 
        IOFF    0            


               X_U3B.x_lm358.sw4 
         RON    1            
        ROFF   10.000000E+06 
         ION    0            
        IOFF   -1.000000E-06 


               X_U4A.x_lm358.sw2 
         RON    1            
        ROFF   10.000000E+06 
         ION    0            
        IOFF   -1.000000E-06 


               X_U4A.x_lm358.sw1 
         RON    1            
        ROFF   10.000000E+06 
         ION   -1.000000E-06 
        IOFF    0            


               X_U4A.x_lm358.sw3 
         RON    1            
        ROFF   10.000000E+06 
         ION   -1.000000E-06 
        IOFF    0            


               X_U4A.x_lm358.sw4 
         RON    1            
        ROFF   10.000000E+06 
         ION    0            
        IOFF   -1.000000E-06 


**** 10/16/24 13:30:46 ******* PSpice 17.4.0 (Nov 2018) ******* ID# 0 ********

 ** Profile: "SCHEMATIC1-DITHER_RAS"  [ D:\OneDrive\OneDrive - Hyper Instrument\003_Simulation_Circuits\PSpice\RAS Circuit\dither_ras


 ****     INITIAL TRANSIENT SOLUTION       TEMPERATURE =   27.000 DEG C


******************************************************************************



 NODE   VOLTAGE     NODE   VOLTAGE     NODE   VOLTAGE     NODE   VOLTAGE


(   +V)    5.0000  (N20508)     .2089 (N38290)    1.0000 (N57891)     .1980     

(N57895)     .1973 (N57931)     .1972 (N57943)     .1990 (N58063)     .0608     

(N58221)     .2095 (N58453)     .1981 (N61779)    1.0000                        

(X_U3B.x_lm358.6) 547.6E-06           (X_U3B.x_lm358.7)     .1968               

(X_U3B.x_lm358.8)     .1968           (X_U3B.x_lm358.9)    0.0000               

(X_U3B.x_lm358.a) 24.60E-06           (X_U3B.x_lm358.b) 24.10E-06               

(X_U4A.x_lm358.6)     .0233           (X_U4A.x_lm358.7)    -.1809               

(X_U4A.x_lm358.8)    -.1809           (X_U4A.x_lm358.9)    0.0000               

(X_U4A.x_lm358.a)     .0048           (X_U4A.x_lm358.b)     .0048               

(X_U3B.x_lm358.10)     .8173          (X_U3B.x_lm358.11)     .0398              

(X_U3B.x_lm358.12)     .0404          (X_U3B.x_lm358.13)     .8034              

(X_U3B.x_lm358.14)     .8032          (X_U3B.x_lm358.53)    3.5000              

(X_U3B.x_lm358.54)     .8220          (X_U3B.x_lm358.90)    -.0241              

(X_U3B.x_lm358.91)   40.0000          (X_U3B.x_lm358.92)  -40.0000              

(X_U3B.x_lm358.99)    2.5000          (X_U4A.x_lm358.10)     .8063              

(X_U4A.x_lm358.11)     .0392          (X_U4A.x_lm358.12)     .0410              

(X_U4A.x_lm358.13)     .7925          (X_U4A.x_lm358.14)     .7919              

(X_U4A.x_lm358.53)    3.5000          (X_U4A.x_lm358.54)     .8220              

(X_U4A.x_lm358.90)   -4.8341          (X_U4A.x_lm358.91)   40.0000              

(X_U4A.x_lm358.92)  -40.0000          (X_U4A.x_lm358.99)    2.5000          




    VOLTAGE SOURCE CURRENTS
    NAME         CURRENT

    V_V1        -1.541E-06
    V_V2        -1.132E-03
    X_U3B.x_lm358.vb   5.476E-09
    X_U3B.x_lm358.vc   3.303E-12
    X_U3B.x_lm358.ve  -2.405E-05
    X_U3B.x_lm358.vlim  -2.410E-05
    X_U3B.x_lm358.vlp  -4.002E-11
    X_U3B.x_lm358.vln  -3.998E-11
    X_U4A.x_lm358.vb   2.331E-07
    X_U4A.x_lm358.vc   3.440E-12
    X_U4A.x_lm358.ve  -4.834E-03
    X_U4A.x_lm358.vlim  -4.834E-03
    X_U4A.x_lm358.vlp  -4.483E-11
    X_U4A.x_lm358.vln  -3.517E-11

    TOTAL POWER DISSIPATION   9.66E-03  WATTS



          JOB CONCLUDED

**** 10/16/24 13:30:46 ******* PSpice 17.4.0 (Nov 2018) ******* ID# 0 ********

 ** Profile: "SCHEMATIC1-DITHER_RAS"  [ D:\OneDrive\OneDrive - Hyper Instrument\003_Simulation_Circuits\PSpice\RAS Circuit\dither_ras


 ****     JOB STATISTICS SUMMARY


******************************************************************************



  Total job time (using Solver 0)   =       10.38
