
**** 10/16/24 13:27:37 ******* PSpice 17.4.0 (Nov 2018) ******* ID# 0 ********

 ** Profile: "SCHEMATIC1-tlv7011_sim"  [ D:\OneDrive\OneDrive - Hyper Instrument\003_Simulation_Circuits\OrCAD\TLV7011_Comparator Cir


 ****     CIRCUIT DESCRIPTION


******************************************************************************




** Creating circuit file "tlv7011_sim.cir" 
** WARNING: THIS AUTOMATICALLY GENERATED FILE MAY BE OVERWRITTEN BY SUBSEQUENT SIMULATIONS

*Libraries: 
* Profile Libraries :
* Local Libraries :
.LIB "../../../tlv7011.lib" 
* From [PSPICE NETLIST] section of C:\Users\kimdo\AppData\Roaming\SPB_Data\cdssetup\OrCAD_PSpice\17.4.0\PSpice.ini file:
.lib "nom.lib" 

*Analysis directives: 
.TRAN  0 2ms 0 
.OPTIONS ADVCONV
.PROBE64 V(alias(*)) I(alias(*)) W(alias(*)) D(alias(*)) NOISE(alias(*)) 
.INC "..\SCHEMATIC1.net" 



**** INCLUDING SCHEMATIC1.net ****
* source TLV7011
.EXTERNAL INPUT OUT
X_U1         N841252 0 OUT N838427 0 TLV7011
V_V+1         N838427 0 2.5V
V_V1         N841245 0  AC 340
+SIN 0 340 50 0 0 0
R_R4         N841252 N841245  1000000 TC=0,0 
R_R5         0 N841252  10000 TC=0,0 
X_D1         0 N841252 awb1n5823 PARAMS:                
X_U2         N842975 N845234 OUT N842875 N846433 TLV7011
V_V+2         N842875 0 5V
V_V2         N842975 0  AC 2
+SIN 1.25 2 1000 0 0 0
V_V+3         N845234 0 1.25V
R_R12         N846433 0  1m TC=0,0 

**** RESUMING tlv7011_sim.cir ****
.END

**** 10/16/24 13:27:37 ******* PSpice 17.4.0 (Nov 2018) ******* ID# 0 ********

 ** Profile: "SCHEMATIC1-tlv7011_sim"  [ D:\OneDrive\OneDrive - Hyper Instrument\003_Simulation_Circuits\OrCAD\TLV7011_Comparator Cir


 ****     Diode MODEL PARAMETERS


******************************************************************************




               X_D1.model22    
          IS  674.000000E-09 
           N     .8          
          BV   22            
         IBV    1            
          RS    4.000000E-03 
         CJO    2.579300E-09 
          VJ     .5          
           M     .4596       
          EG     .69         
         XTI    2            


**** 10/16/24 13:27:37 ******* PSpice 17.4.0 (Nov 2018) ******* ID# 0 ********

 ** Profile: "SCHEMATIC1-tlv7011_sim"  [ D:\OneDrive\OneDrive - Hyper Instrument\003_Simulation_Circuits\OrCAD\TLV7011_Comparator Cir


 ****     Voltage Controlled Switch MODEL PARAMETERS


******************************************************************************




               X_U1.X_S1._S1   X_U1.X_S2._S2   X_U2.X_S1._S1   X_U2.X_S2._S2   
         RON    1               1               1               1            
        ROFF    1.000000E+06    1.000000E+06    1.000000E+06    1.000000E+06 
         VON    1               0               1               0            
        VOFF    0               1               0               1            


               X_U1.X_U5.X_SMID._SMID 
         RON    1            
        ROFF    1.000000E+12 
         VON    0            
        VOFF    1            


               X_U1.X_U5.X_SHIZ._SHIZ 
         RON    1            
        ROFF    1.000000E+12 
         VON    0            
        VOFF    1            


               X_U1.X_U5.X_SVOH._SVOH 
         RON    1            
        ROFF    1.000000E+12 
         VON    1            
        VOFF    0            


               X_U1.X_U5.X_SVOL._SVOL 
         RON    1            
        ROFF    1.000000E+12 
         VON    0            
        VOFF    1            


               X_U2.X_U5.X_SMID._SMID 
         RON    1            
        ROFF    1.000000E+12 
         VON    0            
        VOFF    1            


               X_U2.X_U5.X_SHIZ._SHIZ 
         RON    1            
        ROFF    1.000000E+12 
         VON    0            
        VOFF    1            


               X_U2.X_U5.X_SVOH._SVOH 
         RON    1            
        ROFF    1.000000E+12 
         VON    1            
        VOFF    0            


               X_U2.X_U5.X_SVOL._SVOL 
         RON    1            
        ROFF    1.000000E+12 
         VON    0            
        VOFF    1            


Starting pseudo-transient algorithm.

INFO(ORPSIM-16594): To improve Pseudotransient Convergence and Performance, set following options to relax stabilization criteria for capacitor currents and inductor voltages: PTRANABSTOL=1e-5, PTRANVNTOL=1e-4

**** 10/16/24 13:27:37 ******* PSpice 17.4.0 (Nov 2018) ******* ID# 0 ********

 ** Profile: "SCHEMATIC1-tlv7011_sim"  [ D:\OneDrive\OneDrive - Hyper Instrument\003_Simulation_Circuits\OrCAD\TLV7011_Comparator Cir


 ****     INITIAL TRANSIENT SOLUTION       TEMPERATURE =   27.000 DEG C


******************************************************************************



 NODE   VOLTAGE     NODE   VOLTAGE     NODE   VOLTAGE     NODE   VOLTAGE


(  OUT) 2.845E-09  (N838427)    2.5000                   (N841245)    0.0000    

(N841252)-38.82E-09                   (N842875)    5.0000                       

(N842975)    1.2500                   (N845234)    1.2500                       

(N846433) 5.000E-09                   (X_U1.CMP)    0.0000                      

(X_U2.CMP) 4.902E-09                  (X_U1.N21237)    0.0000                   

(X_U2.N21237)    0.0000               (X_U1.IN+BUFF)-38.82E-09                  

(X_U1.IN-BUFF)    0.0000              (X_U1.INRANGE)    0.0000                  

(X_U1.N785573) 500.0E-06              (X_U1.N786723)    0.0000                  

(X_U1.N840186)    0.0000              (X_U1.N843683)    2.5000                  

(X_U1.N852568)     .0042              (X_U1.N857437)    0.0000                  

(X_U1.N857443)    0.0000              (X_U1.N858088)    0.0000                  

(X_U1.N861676)    0.0000              (X_U1.X_U3.VH)     .0021                  

(X_U1.X_U5.1V)    1.0000              (X_U1.X_U7.1V)    1.0000                  

(X_U2.IN+BUFF)    1.2500              (X_U2.IN-BUFF)    1.2500                  

(X_U2.INRANGE) 5.000E-09              (X_U2.N785573)    1.2505                  

(X_U2.N786723)    0.0000              (X_U2.N840186)    0.0000                  

(X_U2.N843683)    5.0000              (X_U2.N852568)     .0042                  

(X_U2.N857437) 2.451E-09              (X_U2.N857443)    0.0000                  

(X_U2.N858088)    0.0000              (X_U2.N861676)-5.000E-09                  

(X_U2.X_U3.VH)     .0021              (X_U2.X_U5.1V)    1.0000                  

(X_U2.X_U7.1V)    1.0000              (X_U1.X_U3.OUT)    0.0000                 

(X_U1.X_U5.MID)    1.2500             (X_U2.X_U3.OUT) 5.000E-09                 

(X_U2.X_U5.MID)    2.5000             (X_U1.V+_BUFFER)    2.5000                

(X_U1.V-_BUFFER)    0.0000            (X_U1.X_U3.VMID)    1.2500                

(X_U2.V+_BUFFER)    5.0000            (X_U2.V-_BUFFER) 5.000E-09                

(X_U2.X_U3.VMID)    2.5000            (X_U1.X_U2.N20155)    2.7100              

(X_U1.X_U2.N20415)    -.1100          (X_U1.X_U2.N20531)    0.0000              

(X_U1.X_U2.N20539)    -.1100          (X_U1.X_U2.N20826)    0.0000              

(X_U1.X_U2.N20833)    0.0000          (X_U1.X_U2.N20840)    0.0000              

(X_U1.X_U2.N32066)    2.7100          (X_U1.X_U3.INNNEW)     .0021              

(X_U1.X_U4.N03175)    0.0000          (X_U1.X_U5.X_U3.3)    1.5000              

(X_U1.X_U5.X_U8.6)    0.0000          (X_U1.X_U7.N16973)    2.5000              

(X_U1.X_U7.N20310)    1.5900          (X_U1.X_U7.N20377)    5.5100              

(X_U2.X_U2.N20155)    5.2100          (X_U2.X_U2.N20415)    -.1100              

(X_U2.X_U2.N20531) 5.000E-09          (X_U2.X_U2.N20539)    -.1100              

(X_U2.X_U2.N20826) 5.000E-09          (X_U2.X_U2.N20833) 5.000E-09              

(X_U2.X_U2.N20840) 5.000E-09          (X_U2.X_U2.N32066)    5.2100              

(X_U2.X_U3.INNNEW)    1.2521          (X_U2.X_U4.N03175) 2.451E-09              

(X_U2.X_U5.X_U3.3)    4.0000          (X_U2.X_U5.X_U8.6)    0.0000              

(X_U2.X_U7.N16973)    5.0000          (X_U2.X_U7.N20310)    1.5900              

(X_U2.X_U7.N20377)    5.5100          (X_U1.X_U2.X_U24.6)    0.0000             

(X_U1.X_U5.N774212)    1.5000       